Time [s],Channel 0,Channel 1,Channel 2,Channel 3,Channel 4,Channel 5,Channel 6,Channel 7
0.000000000,1,1,1,1,1,1,1,1
8.880725250,1,1,1,1,1,1,0,1
8.880733417,1,1,1,1,1,1,1,1
8.880835708,1,1,1,1,1,1,0,1
8.880844792,1,1,1,1,1,1,1,1
8.880875542,1,1,1,1,1,1,0,1
8.880893083,1,1,1,1,1,1,1,1
8.880916667,1,1,1,1,1,1,0,1
8.880930625,1,1,1,1,1,1,1,1
8.880947750,1,1,1,1,1,1,0,1
8.880953667,1,1,1,1,1,1,1,1
8.880967417,1,1,1,1,1,1,0,1
8.880973500,1,1,1,1,1,1,1,1
8.881033333,1,1,1,1,1,1,0,1
8.881475542,1,1,1,1,1,1,1,1
8.881478167,1,1,1,1,1,1,0,1
8.881483000,1,1,1,1,1,1,1,1
8.881485625,1,1,1,1,1,1,0,1
8.881488000,1,1,1,1,1,1,1,1
8.881492375,1,1,1,1,1,1,0,1
8.881494708,1,1,1,1,1,1,1,1
8.881497375,1,1,1,1,1,1,0,1
8.881502208,1,1,1,1,1,1,1,1
8.881504833,1,1,1,1,1,1,0,1
8.881507167,1,1,1,1,1,1,1,1
8.881524542,1,1,1,1,1,1,0,1
8.881534333,1,1,1,1,1,1,1,1
8.881545958,1,1,1,1,1,1,0,1
8.881548292,1,1,1,1,1,1,1,1
8.881550958,1,1,1,1,1,1,0,1
8.881566000,1,1,1,1,1,1,1,1
8.881571125,1,1,1,1,1,1,0,1
8.881575958,1,1,1,1,1,1,1,1
8.881583625,1,1,1,1,1,1,0,1
8.881607125,1,1,1,1,1,1,1,1
8.881613500,1,1,1,1,1,1,0,1
8.881615833,1,1,1,1,1,1,1,1
8.881618500,1,1,1,1,1,1,0,1
8.881620833,1,1,1,1,1,1,1,1
8.881637208,1,1,1,1,1,1,0,1
8.881639542,1,1,1,1,1,1,1,1
8.881644667,1,1,1,1,1,1,0,1
8.881654500,1,1,1,1,1,1,1,1
8.881660875,1,1,1,1,1,1,0,1
8.881663208,1,1,1,1,1,1,1,1
8.881668333,1,1,1,1,1,1,0,1
8.881673167,1,1,1,1,1,1,1,1
8.881675792,1,1,1,1,1,1,0,1
8.881686875,1,1,1,1,1,1,1,1
8.881692000,1,1,1,1,1,1,0,1
8.881696833,1,1,1,1,1,1,1,1
8.881699500,1,1,1,1,1,1,0,1
8.881708083,1,1,1,1,1,1,1,1
8.881710708,1,1,1,1,1,1,0,1
8.881713042,1,1,1,1,1,1,1,1
8.881715667,1,1,1,1,1,1,0,1
8.881718042,1,1,1,1,1,1,1,1
8.881720667,1,1,1,1,1,1,0,1
8.881723000,1,1,1,1,1,1,1,1
8.881725667,1,1,1,1,1,1,0,1
8.881749167,1,1,1,1,1,1,1,1
8.881755583,1,1,1,1,1,1,0,1
8.881826417,1,1,1,1,1,1,1,1
8.881850250,1,1,1,1,1,1,0,1
8.881876250,1,1,1,1,1,1,1,1
8.881878875,1,1,1,1,1,1,0,1
8.881881250,1,1,1,1,1,1,1,1
8.881883875,1,1,1,1,1,1,0,1
8.881886250,1,1,1,1,1,1,1,1
8.881891375,1,1,1,1,1,1,0,1
8.881897458,1,1,1,1,1,1,1,1
8.881900083,1,1,1,1,1,1,0,1
8.881902417,1,1,1,1,1,1,1,1
8.881910042,1,1,1,1,1,1,0,1
8.881923375,1,1,1,1,1,1,1,1
8.881928500,1,1,1,1,1,1,0,1
8.881930833,1,1,1,1,1,1,1,1
8.881933458,1,1,1,1,1,1,0,1
8.881935833,1,1,1,1,1,1,1,1
8.881938458,1,1,1,1,1,1,0,1
8.881940792,1,1,1,1,1,1,1,1
8.882973083,1,1,1,1,1,1,0,1
8.882975375,1,1,1,1,1,1,1,1
8.882978042,1,1,1,1,1,1,0,1
8.882980375,1,1,1,1,1,1,1,1
8.882985500,1,1,1,1,1,1,0,1
8.883004792,1,1,1,1,1,1,1,1
8.883012208,1,1,1,1,1,1,0,1
8.883015375,1,1,1,1,1,1,1,1
8.883020833,1,1,1,1,1,1,0,1
8.883044917,1,1,1,1,1,1,1,1
8.883050042,1,1,1,1,1,1,0,1
8.883076417,1,1,1,1,1,1,1,1
8.883079167,1,1,1,1,1,1,0,1
8.883081875,1,1,1,1,1,1,1,1
8.883084625,1,1,1,1,1,1,0,1
8.883086417,1,1,1,1,1,1,1,1
8.883094667,1,1,1,1,1,1,0,1
8.883097000,1,1,1,1,1,1,1,1
8.883102167,1,1,1,1,1,1,0,1
8.883111958,1,1,1,1,1,1,1,1
8.883121042,1,1,1,1,1,1,0,1
8.883126500,1,1,1,1,1,1,1,1
8.883134750,1,1,1,1,1,1,0,1
8.883137458,1,1,1,1,1,1,1,1
8.883144458,1,1,1,1,1,1,0,1
8.883147167,1,1,1,1,1,1,1,1
8.883155417,1,1,1,1,1,1,0,1
8.883242125,1,1,1,1,1,1,1,1
8.883246750,1,1,1,1,1,1,0,1
8.883253000,1,1,1,1,1,1,1,1
8.883260625,1,1,1,1,1,1,0,1
8.883267958,1,1,1,1,1,1,1,1
8.883270583,1,1,1,1,1,1,0,1
8.883277917,1,1,1,1,1,1,1,1
8.883285542,1,1,1,1,1,1,0,1
8.883295375,1,1,1,1,1,1,1,1
8.883303750,1,1,1,1,1,1,0,1
8.883308583,1,1,1,1,1,1,1,1
8.883311208,1,1,1,1,1,1,0,1
8.883316042,1,1,1,1,1,1,1,1
8.883325417,1,1,1,1,1,1,0,1
8.883327750,1,1,1,1,1,1,1,1
8.883335417,1,1,1,1,1,1,0,1
8.889641250,1,1,1,1,1,1,1,1
8.889643875,1,1,1,1,1,1,0,1
8.889648708,1,1,1,1,1,1,1,1
8.889651333,1,1,1,1,1,1,0,1
8.889653708,1,1,1,1,1,1,1,1
8.889658083,1,1,1,1,1,1,0,1
8.889662917,1,1,1,1,1,1,1,1
8.889668042,1,1,1,1,1,1,0,1
8.889670375,1,1,1,1,1,1,1,1
8.889673042,1,1,1,1,1,1,0,1
8.889682625,1,1,1,1,1,1,1,1
8.889690250,1,1,1,1,1,1,0,1
8.889700042,1,1,1,1,1,1,1,1
8.889711667,1,1,1,1,1,1,0,1
8.889714000,1,1,1,1,1,1,1,1
8.889716667,1,1,1,1,1,1,0,1
8.889731708,1,1,1,1,1,1,1,1
8.889736833,1,1,1,1,1,1,0,1
8.889741667,1,1,1,1,1,1,1,1
8.889749292,1,1,1,1,1,1,0,1
8.889772833,1,1,1,1,1,1,1,1
8.889779208,1,1,1,1,1,1,0,1
8.889781542,1,1,1,1,1,1,1,1
8.889784208,1,1,1,1,1,1,0,1
8.889786542,1,1,1,1,1,1,1,1
8.889802917,1,1,1,1,1,1,0,1
8.889805250,1,1,1,1,1,1,1,1
8.889810375,1,1,1,1,1,1,0,1
8.889820208,1,1,1,1,1,1,1,1
8.889826583,1,1,1,1,1,1,0,1
8.889828917,1,1,1,1,1,1,1,1
8.889834042,1,1,1,1,1,1,0,1
8.889838875,1,1,1,1,1,1,1,1
8.889841542,1,1,1,1,1,1,0,1
8.889852625,1,1,1,1,1,1,1,1
8.889857750,1,1,1,1,1,1,0,1
8.889862583,1,1,1,1,1,1,1,1
8.889865208,1,1,1,1,1,1,0,1
8.889873792,1,1,1,1,1,1,1,1
8.889876417,1,1,1,1,1,1,0,1
8.889878792,1,1,1,1,1,1,1,1
8.889881417,1,1,1,1,1,1,0,1
8.889883750,1,1,1,1,1,1,1,1
8.889886375,1,1,1,1,1,1,0,1
8.889888750,1,1,1,1,1,1,1,1
8.889891375,1,1,1,1,1,1,0,1
8.889914917,1,1,1,1,1,1,1,1
8.889921292,1,1,1,1,1,1,0,1
8.889992208,1,1,1,1,1,1,1,1
8.890016042,1,1,1,1,1,1,0,1
8.890042042,1,1,1,1,1,1,1,1
8.890044667,1,1,1,1,1,1,0,1
8.890047042,1,1,1,1,1,1,1,1
8.890049667,1,1,1,1,1,1,0,1
8.890052000,1,1,1,1,1,1,1,1
8.890057167,1,1,1,1,1,1,0,1
8.890063250,1,1,1,1,1,1,1,1
8.890065875,1,1,1,1,1,1,0,1
8.890068208,1,1,1,1,1,1,1,1
8.890075833,1,1,1,1,1,1,0,1
8.890089167,1,1,1,1,1,1,1,1
8.890094292,1,1,1,1,1,1,0,1
8.890096625,1,1,1,1,1,1,1,1
8.890099250,1,1,1,1,1,1,0,1
8.890101625,1,1,1,1,1,1,1,1
8.890104250,1,1,1,1,1,1,0,1
8.890106583,1,1,1,1,1,1,1,1
8.891138833,1,1,1,1,1,1,0,1
8.891141167,1,1,1,1,1,1,1,1
8.891143792,1,1,1,1,1,1,0,1
8.891146125,1,1,1,1,1,1,1,1
8.891151292,1,1,1,1,1,1,0,1
8.891170583,1,1,1,1,1,1,1,1
8.891177958,1,1,1,1,1,1,0,1
8.891181125,1,1,1,1,1,1,1,1
8.891186625,1,1,1,1,1,1,0,1
8.891210708,1,1,1,1,1,1,1,1
8.891215833,1,1,1,1,1,1,0,1
8.891242167,1,1,1,1,1,1,1,1
8.891244917,1,1,1,1,1,1,0,1
8.891247667,1,1,1,1,1,1,1,1
8.891250417,1,1,1,1,1,1,0,1
8.891252167,1,1,1,1,1,1,1,1
8.891260458,1,1,1,1,1,1,0,1
8.891262792,1,1,1,1,1,1,1,1
8.891267917,1,1,1,1,1,1,0,1
8.891277708,1,1,1,1,1,1,1,1
8.891286792,1,1,1,1,1,1,0,1
8.891292250,1,1,1,1,1,1,1,1
8.891300500,1,1,1,1,1,1,0,1
8.891303208,1,1,1,1,1,1,1,1
8.891310208,1,1,1,1,1,1,0,1
8.891312958,1,1,1,1,1,1,1,1
8.891321167,1,1,1,1,1,1,0,1
8.891407875,1,1,1,1,1,1,1,1
8.891412542,1,1,1,1,1,1,0,1
8.891418792,1,1,1,1,1,1,1,1
8.891426417,1,1,1,1,1,1,0,1
8.891433750,1,1,1,1,1,1,1,1
8.891436375,1,1,1,1,1,1,0,1
8.891443708,1,1,1,1,1,1,1,1
8.891451333,1,1,1,1,1,1,0,1
8.891461167,1,1,1,1,1,1,1,1
8.891469542,1,1,1,1,1,1,0,1
8.891474375,1,1,1,1,1,1,1,1
8.891477000,1,1,1,1,1,1,0,1
8.891481833,1,1,1,1,1,1,1,1
8.891491208,1,1,1,1,1,1,0,1
8.891493542,1,1,1,1,1,1,1,1
8.891501167,1,1,1,1,1,1,0,1
8.897806708,1,1,1,1,1,1,1,1
8.897809333,1,1,1,1,1,1,0,1
8.897814167,1,1,1,1,1,1,1,1
8.897816792,1,1,1,1,1,1,0,1
8.897819167,1,1,1,1,1,1,1,1
8.897823542,1,1,1,1,1,1,0,1
8.897825875,1,1,1,1,1,1,1,1
8.897828542,1,1,1,1,1,1,0,1
8.897833375,1,1,1,1,1,1,1,1
8.897855708,1,1,1,1,1,1,0,1
8.897865542,1,1,1,1,1,1,1,1
8.897877167,1,1,1,1,1,1,0,1
8.897879500,1,1,1,1,1,1,1,1
8.897882125,1,1,1,1,1,1,0,1
8.897897208,1,1,1,1,1,1,1,1
8.897902333,1,1,1,1,1,1,0,1
8.897907167,1,1,1,1,1,1,1,1
8.897914792,1,1,1,1,1,1,0,1
8.897938333,1,1,1,1,1,1,1,1
8.897944708,1,1,1,1,1,1,0,1
8.897947042,1,1,1,1,1,1,1,1
8.897949708,1,1,1,1,1,1,0,1
8.897952042,1,1,1,1,1,1,1,1
8.897968417,1,1,1,1,1,1,0,1
8.897970708,1,1,1,1,1,1,1,1
8.897975875,1,1,1,1,1,1,0,1
8.897985667,1,1,1,1,1,1,1,1
8.897992083,1,1,1,1,1,1,0,1
8.897994417,1,1,1,1,1,1,1,1
8.897999542,1,1,1,1,1,1,0,1
8.898004375,1,1,1,1,1,1,1,1
8.898007000,1,1,1,1,1,1,0,1
8.898018083,1,1,1,1,1,1,1,1
8.898023208,1,1,1,1,1,1,0,1
8.898028042,1,1,1,1,1,1,1,1
8.898030708,1,1,1,1,1,1,0,1
8.898039292,1,1,1,1,1,1,1,1
8.898041917,1,1,1,1,1,1,0,1
8.898044250,1,1,1,1,1,1,1,1
8.898046875,1,1,1,1,1,1,0,1
8.898049250,1,1,1,1,1,1,1,1
8.898051875,1,1,1,1,1,1,0,1
8.898054208,1,1,1,1,1,1,1,1
8.898056875,1,1,1,1,1,1,0,1
8.898080375,1,1,1,1,1,1,1,1
8.898086792,1,1,1,1,1,1,0,1
8.898157667,1,1,1,1,1,1,1,1
8.898181500,1,1,1,1,1,1,0,1
8.898207500,1,1,1,1,1,1,1,1
8.898210125,1,1,1,1,1,1,0,1
8.898212500,1,1,1,1,1,1,1,1
8.898215125,1,1,1,1,1,1,0,1
8.898217500,1,1,1,1,1,1,1,1
8.898222625,1,1,1,1,1,1,0,1
8.898228708,1,1,1,1,1,1,1,1
8.898231333,1,1,1,1,1,1,0,1
8.898233667,1,1,1,1,1,1,1,1
8.898241333,1,1,1,1,1,1,0,1
8.898254625,1,1,1,1,1,1,1,1
8.898259750,1,1,1,1,1,1,0,1
8.898262083,1,1,1,1,1,1,1,1
8.898264750,1,1,1,1,1,1,0,1
8.898267083,1,1,1,1,1,1,1,1
8.898269708,1,1,1,1,1,1,0,1
8.898272083,1,1,1,1,1,1,1,1
8.899304500,1,1,1,1,1,1,0,1
8.899306833,1,1,1,1,1,1,1,1
8.899309458,1,1,1,1,1,1,0,1
8.899311792,1,1,1,1,1,1,1,1
8.899316958,1,1,1,1,1,1,0,1
8.899336250,1,1,1,1,1,1,1,1
8.899343625,1,1,1,1,1,1,0,1
8.899346792,1,1,1,1,1,1,1,1
8.899352292,1,1,1,1,1,1,0,1
8.899376375,1,1,1,1,1,1,1,1
8.899381500,1,1,1,1,1,1,0,1
8.899407833,1,1,1,1,1,1,1,1
8.899410583,1,1,1,1,1,1,0,1
8.899413333,1,1,1,1,1,1,1,1
8.899416083,1,1,1,1,1,1,0,1
8.899417833,1,1,1,1,1,1,1,1
8.899426125,1,1,1,1,1,1,0,1
8.899428458,1,1,1,1,1,1,1,1
8.899433583,1,1,1,1,1,1,0,1
8.899443417,1,1,1,1,1,1,1,1
8.899452458,1,1,1,1,1,1,0,1
8.899457958,1,1,1,1,1,1,1,1
8.899466167,1,1,1,1,1,1,0,1
8.899468917,1,1,1,1,1,1,1,1
8.899475875,1,1,1,1,1,1,0,1
8.899478625,1,1,1,1,1,1,1,1
8.899486875,1,1,1,1,1,1,0,1
8.899573583,1,1,1,1,1,1,1,1
8.899578208,1,1,1,1,1,1,0,1
8.899584458,1,1,1,1,1,1,1,1
8.899592083,1,1,1,1,1,1,0,1
8.899599417,1,1,1,1,1,1,1,1
8.899602042,1,1,1,1,1,1,0,1
8.899609417,1,1,1,1,1,1,1,1
8.899617042,1,1,1,1,1,1,0,1
8.899626833,1,1,1,1,1,1,1,1
8.899635250,1,1,1,1,1,1,0,1
8.899640042,1,1,1,1,1,1,1,1
8.899642708,1,1,1,1,1,1,0,1
8.899647542,1,1,1,1,1,1,1,1
8.899656917,1,1,1,1,1,1,0,1
8.899659250,1,1,1,1,1,1,1,1
8.899666875,1,1,1,1,1,1,0,1
8.905971375,1,1,1,1,1,1,1,1
8.905974000,1,1,1,1,1,1,0,1
8.905978875,1,1,1,1,1,1,1,1
8.905981500,1,1,1,1,1,1,0,1
8.905983833,1,1,1,1,1,1,1,1
8.905988250,1,1,1,1,1,1,0,1
8.905993083,1,1,1,1,1,1,1,1
8.906000708,1,1,1,1,1,1,0,1
8.906005542,1,1,1,1,1,1,1,1
8.906020375,1,1,1,1,1,1,0,1
8.906030208,1,1,1,1,1,1,1,1
8.906041833,1,1,1,1,1,1,0,1
8.906044167,1,1,1,1,1,1,1,1
8.906046792,1,1,1,1,1,1,0,1
8.906061875,1,1,1,1,1,1,1,1
8.906067000,1,1,1,1,1,1,0,1
8.906071833,1,1,1,1,1,1,1,1
8.906079458,1,1,1,1,1,1,0,1
8.906103000,1,1,1,1,1,1,1,1
8.906109375,1,1,1,1,1,1,0,1
8.906111708,1,1,1,1,1,1,1,1
8.906114333,1,1,1,1,1,1,0,1
8.906116708,1,1,1,1,1,1,1,1
8.906133042,1,1,1,1,1,1,0,1
8.906135375,1,1,1,1,1,1,1,1
8.906140542,1,1,1,1,1,1,0,1
8.906150333,1,1,1,1,1,1,1,1
8.906156708,1,1,1,1,1,1,0,1
8.906159042,1,1,1,1,1,1,1,1
8.906164208,1,1,1,1,1,1,0,1
8.906169042,1,1,1,1,1,1,1,1
8.906171667,1,1,1,1,1,1,0,1
8.906182750,1,1,1,1,1,1,1,1
8.906187875,1,1,1,1,1,1,0,1
8.906192708,1,1,1,1,1,1,1,1
8.906195333,1,1,1,1,1,1,0,1
8.906203917,1,1,1,1,1,1,1,1
8.906206542,1,1,1,1,1,1,0,1
8.906208917,1,1,1,1,1,1,1,1
8.906211542,1,1,1,1,1,1,0,1
8.906213875,1,1,1,1,1,1,1,1
8.906216542,1,1,1,1,1,1,0,1
8.906218875,1,1,1,1,1,1,1,1
8.906221500,1,1,1,1,1,1,0,1
8.906245042,1,1,1,1,1,1,1,1
8.906251417,1,1,1,1,1,1,0,1
8.906322292,1,1,1,1,1,1,1,1
8.906346125,1,1,1,1,1,1,0,1
8.906372125,1,1,1,1,1,1,1,1
8.906374750,1,1,1,1,1,1,0,1
8.906377125,1,1,1,1,1,1,1,1
8.906379750,1,1,1,1,1,1,0,1
8.906382083,1,1,1,1,1,1,1,1
8.906387208,1,1,1,1,1,1,0,1
8.906393292,1,1,1,1,1,1,1,1
8.906395917,1,1,1,1,1,1,0,1
8.906398292,1,1,1,1,1,1,1,1
8.906405917,1,1,1,1,1,1,0,1
8.906419208,1,1,1,1,1,1,1,1
8.906424375,1,1,1,1,1,1,0,1
8.906426708,1,1,1,1,1,1,1,1
8.906429333,1,1,1,1,1,1,0,1
8.906431667,1,1,1,1,1,1,1,1
8.906434333,1,1,1,1,1,1,0,1
8.906436667,1,1,1,1,1,1,1,1
8.907468875,1,1,1,1,1,1,0,1
8.907471208,1,1,1,1,1,1,1,1
8.907473833,1,1,1,1,1,1,0,1
8.907476167,1,1,1,1,1,1,1,1
8.907481292,1,1,1,1,1,1,0,1
8.907500583,1,1,1,1,1,1,1,1
8.907508000,1,1,1,1,1,1,0,1
8.907511167,1,1,1,1,1,1,1,1
8.907516625,1,1,1,1,1,1,0,1
8.907540708,1,1,1,1,1,1,1,1
8.907545875,1,1,1,1,1,1,0,1
8.907572208,1,1,1,1,1,1,1,1
8.907574958,1,1,1,1,1,1,0,1
8.907577708,1,1,1,1,1,1,1,1
8.907580417,1,1,1,1,1,1,0,1
8.907582208,1,1,1,1,1,1,1,1
8.907590500,1,1,1,1,1,1,0,1
8.907592792,1,1,1,1,1,1,1,1
8.907597958,1,1,1,1,1,1,0,1
8.907607750,1,1,1,1,1,1,1,1
8.907616833,1,1,1,1,1,1,0,1
8.907622292,1,1,1,1,1,1,1,1
8.907630542,1,1,1,1,1,1,0,1
8.907633250,1,1,1,1,1,1,1,1
8.907640250,1,1,1,1,1,1,0,1
8.907643000,1,1,1,1,1,1,1,1
8.907651208,1,1,1,1,1,1,0,1
8.907737917,1,1,1,1,1,1,1,1
8.907742542,1,1,1,1,1,1,0,1
8.907748792,1,1,1,1,1,1,1,1
8.907756417,1,1,1,1,1,1,0,1
8.907763750,1,1,1,1,1,1,1,1
8.907766375,1,1,1,1,1,1,0,1
8.907773708,1,1,1,1,1,1,1,1
8.907781333,1,1,1,1,1,1,0,1
8.907791167,1,1,1,1,1,1,1,1
8.907799542,1,1,1,1,1,1,0,1
8.907804375,1,1,1,1,1,1,1,1
8.907807000,1,1,1,1,1,1,0,1
8.907811833,1,1,1,1,1,1,1,1
8.907821208,1,1,1,1,1,1,0,1
8.907823542,1,1,1,1,1,1,1,1
8.907831208,1,1,1,1,1,1,0,1
8.913481875,1,1,1,1,1,1,1,1
8.913529083,1,1,1,1,1,1,0,1
8.913529583,1,1,1,1,1,1,1,1
8.913535458,1,1,1,1,1,1,0,1
8.913586000,1,1,1,1,1,1,1,1
8.913596542,1,1,1,1,1,1,0,1
8.913632542,1,1,1,1,1,1,1,1
8.913643208,1,1,1,1,1,1,0,1
8.914135708,1,1,1,1,1,1,1,1
8.914138333,1,1,1,1,1,1,0,1
8.914143167,1,1,1,1,1,1,1,1
8.914145833,1,1,1,1,1,1,0,1
8.914148167,1,1,1,1,1,1,1,1
8.914152542,1,1,1,1,1,1,0,1
8.914154875,1,1,1,1,1,1,1,1
8.914157542,1,1,1,1,1,1,0,1
8.914162375,1,1,1,1,1,1,1,1
8.914165000,1,1,1,1,1,1,0,1
8.914167333,1,1,1,1,1,1,1,1
8.914184708,1,1,1,1,1,1,0,1
8.914194500,1,1,1,1,1,1,1,1
8.914206125,1,1,1,1,1,1,0,1
8.914208458,1,1,1,1,1,1,1,1
8.914211125,1,1,1,1,1,1,0,1
8.914226167,1,1,1,1,1,1,1,1
8.914231292,1,1,1,1,1,1,0,1
8.914236125,1,1,1,1,1,1,1,1
8.914243750,1,1,1,1,1,1,0,1
8.914267292,1,1,1,1,1,1,1,1
8.914273667,1,1,1,1,1,1,0,1
8.914274458,1,1,1,1,1,1,1,1
8.914276042,1,0,1,1,1,1,1,1
8.914279333,1,1,1,1,1,1,1,1
8.914281000,1,0,1,1,1,1,1,1
8.914298042,1,1,1,1,1,1,1,1
8.914299708,1,0,1,1,1,1,1,1
8.914305500,1,1,1,1,1,1,1,1
8.914307875,1,1,1,1,1,1,0,1
8.914312333,1,1,1,1,1,1,1,1
8.914314667,1,0,1,1,1,1,1,1
8.914321417,1,1,1,1,1,1,1,1
8.914326708,1,0,1,1,1,1,1,1
8.914329208,1,1,1,1,1,1,1,1
8.914333333,1,0,1,1,1,1,1,1
8.914336833,1,1,1,1,1,1,1,1
8.914347042,1,0,1,1,1,1,1,1
8.914352958,1,1,1,1,1,1,1,1
8.914357000,1,0,1,1,1,1,1,1
8.914360292,1,1,1,1,1,1,1,1
8.914368208,1,0,1,1,1,1,1,1
8.914370875,1,0,1,1,1,1,0,1
8.914373167,1,0,1,1,1,1,1,1
8.914376708,1,1,1,1,1,1,1,1
8.914378167,1,0,1,1,1,1,1,1
8.914381583,1,1,1,1,1,1,1,1
8.914383167,1,0,1,1,1,1,1,1
8.914385875,1,0,1,1,1,1,0,1
8.914409292,1,0,1,1,1,1,1,1
8.914416417,1,1,1,1,1,1,1,1
8.914486583,1,0,1,1,1,1,1,1
8.914511042,1,1,1,1,1,1,1,1
8.914536417,1,0,1,1,1,1,1,1
8.914539917,1,1,1,1,1,1,1,1
8.914541375,1,0,1,1,1,1,1,1
8.914544917,1,1,1,1,1,1,1,1
8.914546375,1,0,1,1,1,1,1,1
8.914552208,1,1,1,1,1,1,1,1
8.914557583,1,0,1,1,1,1,1,1
8.914561042,1,1,1,1,1,1,1,1
8.914562583,1,0,1,1,1,1,1,1
8.914570917,1,1,1,1,1,1,1,1
8.914583500,1,0,1,1,1,1,1,1
8.914589375,1,1,1,1,1,1,1,1
8.914590958,1,0,1,1,1,1,1,1
8.914594542,1,1,1,1,1,1,1,1
8.914595958,1,0,1,1,1,1,1,1
8.914599375,1,1,1,1,1,1,1,1
8.914600958,1,0,1,1,1,1,1,1
8.915066667,1,1,1,1,1,1,1,1
8.915067833,1,0,1,1,1,1,1,1
8.915099375,1,1,1,1,1,1,1,1
8.915107083,1,0,1,1,1,1,1,1
8.915633542,1,1,1,1,1,1,1,1
8.915635292,1,0,1,1,1,1,1,1
8.915638792,1,1,1,1,1,1,1,1
8.915640292,1,0,1,1,1,1,1,1
8.915645458,1,0,1,1,1,1,0,1
8.915664667,1,0,1,1,1,1,1,1
8.915672083,1,0,1,1,1,1,0,1
8.915686208,1,0,1,1,1,1,1,1
8.915694417,1,0,1,1,1,1,0,1
8.915696083,1,0,1,1,1,1,1,1
8.917751875,1,0,1,1,1,1,0,1
8.917759083,1,0,1,1,1,1,1,1
8.917762667,1,1,1,1,1,1,1,1
8.917769125,1,0,1,1,1,1,1,1
8.917777458,1,1,1,1,1,1,1,1
8.917786542,1,0,1,1,1,1,1,1
8.917795625,1,1,1,1,1,1,1,1
8.917799750,1,0,1,1,1,1,1,1
8.917803333,1,1,1,1,1,1,1,1
8.917807250,1,0,1,1,1,1,1,1
8.917817208,1,1,1,1,1,1,1,1
8.917818958,1,0,1,1,1,1,1,1
8.917826625,1,0,1,1,1,1,0,1
8.922301500,1,0,1,1,1,1,1,1
8.922304208,1,0,1,1,1,1,0,1
8.922308958,1,0,1,1,1,1,1,1
8.922311667,1,0,1,1,1,1,0,1
8.922313917,1,0,1,1,1,1,1,1
8.922319042,1,1,1,1,1,1,1,1
8.922323208,1,0,1,1,1,1,1,1
8.922329125,1,1,1,1,1,1,1,1
8.922330667,1,0,1,1,1,1,1,1
8.922334167,1,1,1,1,1,1,1,1
8.922342875,1,0,1,1,1,1,1,1
8.922351333,1,1,1,1,1,1,1,1
8.922360333,1,0,1,1,1,1,1,1
8.922372667,1,1,1,1,1,1,1,1
8.922374292,1,0,1,1,1,1,1,1
8.922377708,1,1,1,1,1,1,1,1
8.922392000,1,0,1,1,1,1,1,1
8.922397750,1,1,1,1,1,1,1,1
8.922401958,1,0,1,1,1,1,1,1
8.922410333,1,1,1,1,1,1,1,1
8.922433083,1,0,1,1,1,1,1,1
8.922440292,1,1,1,1,1,1,1,1
8.922441833,1,0,1,1,1,1,1,1
8.922445292,1,1,1,1,1,1,1,1
8.922446833,1,0,1,1,1,1,1,1
8.922463833,1,1,1,1,1,1,1,1
8.922465500,1,0,1,1,1,1,1,1
8.922471375,1,1,1,1,1,1,1,1
8.922480458,1,0,1,1,1,1,1,1
8.922486875,1,0,1,1,1,1,0,1
8.922487792,1,1,1,1,1,1,0,1
8.922489125,1,1,1,1,1,1,1,1
8.922489167,1,0,1,1,1,1,1,1
8.922495042,1,1,1,1,1,1,1,1
8.922499167,1,0,1,1,1,1,1,1
8.922501833,1,0,1,1,1,1,0,1
8.922512833,1,0,1,1,1,1,1,1
8.922518042,1,0,1,1,1,1,0,1
8.922522792,1,0,1,1,1,1,1,1
8.922525500,1,0,1,1,1,1,0,1
8.922534000,1,0,1,1,1,1,1,1
8.922536708,1,0,1,1,1,1,0,1
8.922539000,1,0,1,1,1,1,1,1
8.922541708,1,0,1,1,1,1,0,1
8.922543958,1,0,1,1,1,1,1,1
8.922546708,1,0,1,1,1,1,0,1
8.922548958,1,0,1,1,1,1,1,1
8.922552500,1,1,1,1,1,1,1,1
8.922575167,1,0,1,1,1,1,1,1
8.922582292,1,1,1,1,1,1,1,1
8.922652417,1,0,1,1,1,1,1,1
8.922676917,1,1,1,1,1,1,1,1
8.922702250,1,0,1,1,1,1,1,1
8.922705708,1,1,1,1,1,1,1,1
8.922707250,1,0,1,1,1,1,1,1
8.922710792,1,1,1,1,1,1,1,1
8.922712208,1,0,1,1,1,1,1,1
8.922718083,1,1,1,1,1,1,1,1
8.922723458,1,0,1,1,1,1,1,1
8.922726917,1,1,1,1,1,1,1,1
8.922728417,1,0,1,1,1,1,1,1
8.922736792,1,1,1,1,1,1,1,1
8.922749375,1,0,1,1,1,1,1,1
8.922755292,1,1,1,1,1,1,1,1
8.922756833,1,0,1,1,1,1,1,1
8.922760292,1,1,1,1,1,1,1,1
8.922761792,1,0,1,1,1,1,1,1
8.922765250,1,1,1,1,1,1,1,1
8.922766792,1,0,1,1,1,1,1,1
8.923799708,1,1,1,1,1,1,1,1
8.923801333,1,0,1,1,1,1,1,1
8.923804792,1,1,1,1,1,1,1,1
8.923806333,1,0,1,1,1,1,1,1
8.923812167,1,1,1,1,1,1,1,1
8.923830750,1,0,1,1,1,1,1,1
8.923838125,1,0,1,1,1,1,0,1
8.923838875,1,1,1,1,1,1,0,1
8.923840833,1,1,1,1,1,1,1,1
8.923852250,1,0,1,1,1,1,1,1
8.923860500,1,0,1,1,1,1,0,1
8.923862125,1,0,1,1,1,1,1,1
8.925918375,1,1,1,1,1,1,1,1
8.925925000,1,0,1,1,1,1,1,1
8.925928458,1,1,1,1,1,1,1,1
8.925934958,1,0,1,1,1,1,1,1
8.925943292,1,1,1,1,1,1,1,1
8.925952417,1,0,1,1,1,1,1,1
8.925961500,1,1,1,1,1,1,1,1
8.925965625,1,0,1,1,1,1,1,1
8.925968333,1,0,1,1,1,1,0,1
8.925973042,1,0,1,1,1,1,1,1
8.925983125,1,1,1,1,1,1,1,1
8.925984792,1,0,1,1,1,1,1,1
8.925993167,1,1,1,1,1,1,1,1
8.930467500,1,0,1,1,1,1,1,1
8.930470875,1,1,1,1,1,1,1,1
8.930475000,1,0,1,1,1,1,1,1
8.930477667,1,0,1,1,1,1,0,1
8.930479917,1,0,1,1,1,1,1,1
8.930485083,1,1,1,1,1,1,1,1
8.930486708,1,0,1,1,1,1,1,1
8.930490167,1,1,1,1,1,1,1,1
8.930494167,1,0,1,1,1,1,1,1
8.930517208,1,1,1,1,1,1,1,1
8.930526333,1,0,1,1,1,1,1,1
8.930538625,1,1,1,1,1,1,1,1
8.930540292,1,0,1,1,1,1,1,1
8.930542958,1,0,1,1,1,1,0,1
8.930557958,1,0,1,1,1,1,1,1
8.930563958,1,1,1,1,1,1,1,1
8.930567958,1,0,1,1,1,1,1,1
8.930576292,1,1,1,1,1,1,1,1
8.930599125,1,0,1,1,1,1,1,1
8.930606250,1,1,1,1,1,1,1,1
8.930607833,1,0,1,1,1,1,1,1
8.930610542,1,0,1,1,1,1,0,1
8.930612792,1,0,1,1,1,1,1,1
8.930629875,1,1,1,1,1,1,1,1
8.930631500,1,0,1,1,1,1,1,1
8.930637292,1,1,1,1,1,1,1,1
8.930646458,1,0,1,1,1,1,1,1
8.930653583,1,1,1,1,1,1,1,1
8.930655208,1,0,1,1,1,1,1,1
8.930660958,1,1,1,1,1,1,1,1
8.930665167,1,0,1,1,1,1,1,1
8.930668667,1,1,1,1,1,1,1,1
8.930678875,1,0,1,1,1,1,1,1
8.930684625,1,1,1,1,1,1,1,1
8.930688833,1,0,1,1,1,1,1,1
8.930692417,1,1,1,1,1,1,1,1
8.930700042,1,0,1,1,1,1,1,1
8.930703542,1,1,1,1,1,1,1,1
8.930705042,1,0,1,1,1,1,1,1
8.930708542,1,1,1,1,1,1,1,1
8.930710000,1,0,1,1,1,1,1,1
8.930713583,1,1,1,1,1,1,1,1
8.930715000,1,0,1,1,1,1,1,1
8.930718458,1,1,1,1,1,1,1,1
8.930741167,1,0,1,1,1,1,1,1
8.930748208,1,1,1,1,1,1,1,1
8.930818417,1,0,1,1,1,1,1,1
8.930843042,1,1,1,1,1,1,1,1
8.930868292,1,0,1,1,1,1,1,1
8.930871708,1,1,1,1,1,1,1,1
8.930873250,1,0,1,1,1,1,1,1
8.930876750,1,1,1,1,1,1,1,1
8.930878250,1,0,1,1,1,1,1,1
8.930883417,1,0,1,1,1,1,0,1
8.930889417,1,0,1,1,1,1,1,1
8.930892167,1,0,1,1,1,1,0,1
8.930894417,1,0,1,1,1,1,1,1
8.930902125,1,0,1,1,1,1,0,1
8.930915333,1,0,1,1,1,1,1,1
8.930920583,1,0,1,1,1,1,0,1
8.930922833,1,0,1,1,1,1,1,1
8.930925500,1,0,1,1,1,1,0,1
